
T1780 000:150 SEGGER J-Link V4.68a Log File (0001ms, 0150ms total)
T1780 000:150 DLL Compiled: Apr 12 2013 13:26:50 (0001ms, 0150ms total)
T1780 000:150 Logging started @ 2015-09-11 11:59 (0001ms, 0150ms total)
T1780 000:152 JLINK_SetWarnOutHandler(...) (0000ms, 0150ms total)
T1780 000:152 JLINK_OpenEx(...)
Firmware: J-Link V9 compiled Jun 23 2015 10:00:59
Hardware: V9.20
Feature(s): GDB, RDI, FlashBP, FlashDL, JFlash  returns O.K. (0030ms, 0180ms total)
T1780 000:182 JLINK_SetErrorOutHandler(...) (0000ms, 0180ms total)
T1780 000:182 JLINK_ExecCommand("ProjectFile = "E:\Ò£¿ØÆ÷\fly_controller\2IAP\IAP_USB_Bootloader_V1.0\USER\JLinkSettings.ini"", ...)  returns 0x00 (0000ms, 0180ms total)
T1780 000:195 JLINK_ExecCommand("Device = STM32F103CB", ...)
                JLINK_AddMirrorAreaEx(Addr = 0x00000000, Size = 0x00000000) (0000ms, 0000ms total)
              Device "STM32F103CB" selected (128 KB flash, 20 KB RAM).  returns 0x00 (0013ms, 0193ms total)
T1780 000:208 JLINK_ExecCommand("DisableConnectionTimeout", ...)  returns 0x00 (0000ms, 0193ms total)
T1780 000:208 JLINK_GetHardwareVersion()  returns 0x16760 (0000ms, 0193ms total)
T1780 000:208 JLINK_GetDLLVersion()  returns 46801 (0000ms, 0193ms total)
T1780 000:208 JLINK_GetFirmwareString(...) (0000ms, 0193ms total)
T1780 000:227 JLINK_GetDLLVersion()  returns 46801 (0000ms, 0194ms total)
T1780 000:227 JLINK_GetCompileDateTime() (0000ms, 0194ms total)
T1780 000:232 JLINK_GetFirmwareString(...) (0000ms, 0195ms total)
T1780 000:239 JLINK_GetHardwareVersion()  returns 0x16760 (0000ms, 0195ms total)
T1780 000:257 JLINK_TIF_Select(JLINKARM_TIF_SWD)  returns 0x00 (0006ms, 0201ms total)
T1780 000:263 JLINK_SetSpeed(2000) (0001ms, 0202ms total)
T1780 000:264 JLINK_GetId() >0x108 TIF>Found SWD-DP with ID 0x1BA01477 >0x0D TIF> >0x28 TIF> >0x0D TIF> >0x28 TIF> >0x0D TIF> >0x21 TIF> >0x0D TIF> >0x28 TIF> >0x0D TIF> >0x28 TIF> >0x0D TIF> >0x28 TIF> >0x0D TIF> >0x21 TIF> >0x0D TIF> >0x21 TIF> >0x0D TIF> >0x28 TIF> >0x0D TIF> >0x21 TIF> >0x0D TIF> >0x21 TIF> >0x108 TIF>Found SWD-DP with ID 0x1BA01477 >0x0D TIF> >0x21 TIF> >0x0D TIF> >0x28 TIF> >0x0D TIF> >0x28 TIF> >0x0D TIF> >0x21 TIF> >0x0D TIF> >0x21 TIF> >0x0D TIF> >0x28 TIF> >0x0D TIF> >0x21 TIF>
 >0x0D TIF> >0x21 TIF> >0x0D TIF> >0x21 TIF> >0x0D TIF> >0x21 TIF> >0x0D TIF> >0x21 TIF> >0x0D TIF> >0x28 TIF> >0x0D TIF> >0x28 TIF> >0x0D TIF> >0x21 TIF> >0x0D TIF> >0x21 TIF> >0x0D TIF> >0x28 TIF> >0x0D TIF> >0x21 TIF> >0x0D TIF> >0x21 TIF> >0x0D TIF> >0x28 TIF> >0x0D TIF> >0x28 TIF> >0x0D TIF> >0x28 TIF> >0x0D TIF> >0x21 TIF> >0x0D TIF> >0x21 TIF> >0x0D TIF> >0x28 TIF> >0x0D TIF> >0x28 TIF> >0x0D TIF> >0x28 TIF> >0x0D TIF> >0x21 TIF> >0x0D TIF> >0x21 TIF> >0x0D TIF> >0x21 TIF>TPIU fitted. >0x0D TIF>
 >0x28 TIF> >0x0D TIF> >0x21 TIF> >0x0D TIF> >0x21 TIF> >0x0D TIF> >0x28 TIF> >0x0D TIF> >0x21 TIF> >0x0D TIF> >0x21 TIF>FPUnit: 6 code (BP) slots and 2 literal slots >0x0D TIF> >0x28 TIF> >0x0D TIF> >0x21 TIF> >0x0D TIF> >0x21 TIF> >0x0D TIF> >0x28 TIF> >0x0D TIF> >0x21 TIF> >0x0D TIF> >0x21 TIF> >0x0D TIF> >0x28 TIF> >0x0D TIF> >0x21 TIF> >0x0D TIF> >0x21 TIF> >0x0D TIF> >0x28 TIF> >0x0D TIF> >0x21 TIF> >0x0D TIF> >0x21 TIF>Found Cortex-M3 r1p1, Little endian. >0x0D TIF> >0x21 TIF>  returns 0x1BA01477
 (0145ms, 0347ms total)
T1780 000:409 JLINK_GetDeviceFamily()  returns 3 (0000ms, 0347ms total)
T1780 000:413 JLINK_ReadMem (0xE00FFFF0, 0x0010 Bytes, ...) -- CPU is running -- CPU_ReadMem(16 bytes @ 0xE00FFFF0) -- Data:  0D 00 00 00 10 00 00 00 05 00 00 00 B1 00 00 00  returns 0x00 (0001ms, 0348ms total)
T1780 000:414 JLINK_ReadMem (0xE00FFFD0, 0x0020 Bytes, ...) -- CPU is running -- CPU_ReadMem(32 bytes @ 0xE00FFFD0) -- Data:  00 00 00 00 00 00 00 00 00 00 00 00 00 00 00 00 ...  returns 0x00 (0001ms, 0349ms total)
T1780 000:415 JLINK_ReadMem (0xE00FF000, 0x0018 Bytes, ...) -- CPU is running -- CPU_ReadMem(24 bytes @ 0xE00FF000) -- Data:  03 F0 F0 FF 03 20 F0 FF 03 30 F0 FF 03 10 F0 FF ...  returns 0x00 (0001ms, 0350ms total)
T1780 000:416 JLINK_ReadMemU32(0xE000ED00, 0x0001 Items, ...) -- CPU is running -- CPU_ReadMem(4 bytes @ 0xE000ED00) -- Data:  31 C2 1F 41  returns 0x01 (0001ms, 0351ms total)
T1780 000:417 JLINK_SetResetType(JLINKARM_RESET_TYPE_NORMAL)  returns JLINKARM_RESET_TYPE_NORMAL (0000ms, 0351ms total)
T1780 000:417 JLINK_Reset() -- CPU is running -- CPU_WriteMem(4 bytes @ 0xE000EDF0) -- CPU is running -- CPU_WriteMem(4 bytes @ 0xE000EDFC) >0x35 TIF> -- CPU is running -- CPU_WriteMem(4 bytes @ 0xE000ED0C) -- CPU is running -- CPU_ReadMem(4 bytes @ 0xE000EDF0) -- CPU is running -- CPU_ReadMem(4 bytes @ 0xE000EDF0) -- CPU is running -- CPU_WriteMem(4 bytes @ 0xE000EDF0) -- CPU is running -- CPU_WriteMem(4 bytes @ 0xE000EDFC) -- CPU is running -- CPU_ReadMem(4 bytes @ 0xE000EDF0)
 -- CPU_WriteMem(4 bytes @ 0xE0002000) (0021ms, 0372ms total)
T1780 000:438 JLINK_Halt()  returns 0x00 (0000ms, 0372ms total)
T1780 000:438 JLINK_IsHalted()  returns TRUE (0000ms, 0372ms total)
T1780 000:438 JLINK_ReadMemU32(0xE000EDF0, 0x0001 Items, ...) -- CPU_ReadMem(4 bytes @ 0xE000EDF0) -- Data:  03 00 03 00  returns 0x01 (0001ms, 0373ms total)
T1780 000:439 JLINK_WriteU32(0xE000EDF0, 0xA05F0003) -- CPU_WriteMem(4 bytes @ 0xE000EDF0)  returns 0x00 (0001ms, 0374ms total)
T1780 000:440 JLINK_WriteU32(0xE000EDFC, 0x01000000) -- CPU_WriteMem(4 bytes @ 0xE000EDFC)  returns 0x00 (0001ms, 0375ms total)
T1780 000:457 JLINK_GetHWStatus(...)  returns 0x00 (0002ms, 0377ms total)
T1780 000:469 JLINK_GetNumBPUnits(Type = 0xFFFFFF00)  returns 0x06 (0000ms, 0377ms total)
T1780 000:469 JLINK_GetNumBPUnits(Type = 0xF0)  returns 0x2000 (0000ms, 0377ms total)
T1780 000:469 JLINK_GetNumWPUnits()  returns 0x04 (0000ms, 0377ms total)
T1780 000:474 JLINK_GetSpeed()  returns 0x7D0 (0000ms, 0377ms total)
T1780 000:478 JLINK_ReadMemU32(0xE000E004, 0x0001 Items, ...) -- CPU_ReadMem(4 bytes @ 0xE000E004) -- Data:  01 00 00 00  returns 0x01 (0001ms, 0378ms total)
T1780 000:479 JLINK_ReadMemU32(0xE000E004, 0x0001 Items, ...) -- CPU_ReadMem(4 bytes @ 0xE000E004) -- Data:  01 00 00 00  returns 0x01 (0001ms, 0379ms total)
T1780 000:480 JLINK_WriteMem(0xE0001000, 0x001C Bytes, ...) -- Data:  01 00 00 00 00 00 00 00 00 00 00 00 00 00 00 00 ... -- CPU_WriteMem(28 bytes @ 0xE0001000)  returns 0x1C (0001ms, 0380ms total)
T1780 000:481 JLINK_ReadMem (0xE0001000, 0x001C Bytes, ...) -- CPU_ReadMem(28 bytes @ 0xE0001000) -- Data:  01 00 00 40 00 00 00 00 00 00 00 00 00 00 00 00 ...  returns 0x00 (0001ms, 0381ms total)
T1780 000:482 JLINK_Halt()  returns 0x00 (0000ms, 0381ms total)
T1780 000:482 JLINK_IsHalted()  returns TRUE (0000ms, 0381ms total)
T1780 000:484 JLINK_WriteMem(0x20000000, 0x0164 Bytes, ...) -- Data:  00 BE 0A E0 0D 78 2D 06 68 40 08 24 40 00 00 D3 ... -- CPU_WriteMem(356 bytes @ 0x20000000)  returns 0x164 (0003ms, 0384ms total)
T1780 000:487 JLINK_WriteReg(R0, 0x08000000)  returns 0x00 (0000ms, 0384ms total)
T1780 000:487 JLINK_WriteReg(R1, 0x007A1200)  returns 0x00 (0000ms, 0384ms total)
T1780 000:487 JLINK_WriteReg(R2, 0x00000001)  returns 0x00 (0000ms, 0384ms total)
T1780 000:487 JLINK_WriteReg(R3, 0x00000000)  returns 0x00 (0000ms, 0384ms total)
T1780 000:487 JLINK_WriteReg(R4, 0x00000000)  returns 0x00 (0000ms, 0384ms total)
T1780 000:487 JLINK_WriteReg(R5, 0x00000000)  returns 0x00 (0000ms, 0384ms total)
T1780 000:487 JLINK_WriteReg(R6, 0x00000000)  returns 0x00 (0000ms, 0384ms total)
T1780 000:487 JLINK_WriteReg(R7, 0x00000000)  returns 0x00 (0000ms, 0384ms total)
T1780 000:487 JLINK_WriteReg(R8, 0x00000000)  returns 0x00 (0000ms, 0384ms total)
T1780 000:487 JLINK_WriteReg(R9, 0x20000160)  returns 0x00 (0000ms, 0384ms total)
T1780 000:487 JLINK_WriteReg(R10, 0x00000000)  returns 0x00 (0000ms, 0384ms total)
T1780 000:487 JLINK_WriteReg(R11, 0x00000000)  returns 0x00 (0000ms, 0384ms total)
T1780 000:487 JLINK_WriteReg(R12, 0x00000000)  returns 0x00 (0001ms, 0385ms total)
T1780 000:488 JLINK_WriteReg(R13, 0x20000800)  returns 0x00 (0000ms, 0385ms total)
T1780 000:488 JLINK_WriteReg(R14, 0x20000001)  returns 0x00 (0000ms, 0385ms total)
T1780 000:488 JLINK_WriteReg(R15, 0x20000038)  returns 0x00 (0000ms, 0385ms total)
T1780 000:488 JLINK_WriteReg(XPSR, 0x01000000)  returns 0x00 (0000ms, 0385ms total)
T1780 000:488 JLINK_WriteReg(MSP, 0x20000800)  returns 0x00 (0000ms, 0385ms total)
T1780 000:488 JLINK_WriteReg(PSP, 0x20000800)  returns 0x00 (0000ms, 0385ms total)
T1780 000:488 JLINK_WriteReg(CFBP, 0x00000000)  returns 0x00 (0000ms, 0385ms total)
T1780 000:488 JLINK_SetBPEx(Addr = 0x20000000, Type = 0xFFFFFFF2) -- CPU_ReadMem(2 bytes @ 0x20000000)  returns 0x00000001 (0001ms, 0386ms total)
T1780 000:489 JLINK_Go() -- CPU_WriteMem(2 bytes @ 0x20000000) -- CPU_WriteMem(4 bytes @ 0xE0002008) -- CPU_WriteMem(4 bytes @ 0xE000200C) -- CPU_WriteMem(4 bytes @ 0xE0002010) -- CPU_WriteMem(4 bytes @ 0xE0002014) -- CPU_WriteMem(4 bytes @ 0xE0002018) -- CPU_WriteMem(4 bytes @ 0xE000201C) (0009ms, 0395ms total)
T1780 000:498 JLINK_IsHalted() -- CPU_ReadMem(2 bytes @ 0x20000000)  returns TRUE (0004ms, 0399ms total)
T1780 000:502 JLINK_ReadReg(R15)  returns 0x20000000 (0000ms, 0395ms total)
T1780 000:502 JLINK_ClrBPEx(BPHandle = 0x00000001)  returns 0x00 (0000ms, 0395ms total)
T1780 000:502 JLINK_ReadReg(R0)  returns 0x00000000 (0000ms, 0395ms total)
T1780 000:503 JLINK_WriteReg(R0, 0x08000000)  returns 0x00 (0000ms, 0395ms total)
T1780 000:503 JLINK_WriteReg(R1, 0x00000400)  returns 0x00 (0000ms, 0395ms total)
T1780 000:503 JLINK_WriteReg(R2, 0x000000FF)  returns 0x00 (0000ms, 0395ms total)
T1780 000:503 JLINK_WriteReg(R3, 0x00000000)  returns 0x00 (0000ms, 0395ms total)
T1780 000:503 JLINK_WriteReg(R4, 0x00000000)  returns 0x00 (0000ms, 0395ms total)
T1780 000:503 JLINK_WriteReg(R5, 0x00000000)  returns 0x00 (0000ms, 0395ms total)
T1780 000:503 JLINK_WriteReg(R6, 0x00000000)  returns 0x00 (0000ms, 0395ms total)
T1780 000:503 JLINK_WriteReg(R7, 0x00000000)  returns 0x00 (0000ms, 0395ms total)
T1780 000:503 JLINK_WriteReg(R8, 0x00000000)  returns 0x00 (0000ms, 0395ms total)
T1780 000:503 JLINK_WriteReg(R9, 0x20000160)  returns 0x00 (0000ms, 0395ms total)
T1780 000:503 JLINK_WriteReg(R10, 0x00000000)  returns 0x00 (0000ms, 0395ms total)
T1780 000:503 JLINK_WriteReg(R11, 0x00000000)  returns 0x00 (0000ms, 0395ms total)
T1780 000:503 JLINK_WriteReg(R12, 0x00000000)  returns 0x00 (0000ms, 0395ms total)
T1780 000:503 JLINK_WriteReg(R13, 0x20000800)  returns 0x00 (0000ms, 0395ms total)
T1780 000:503 JLINK_WriteReg(R14, 0x20000001)  returns 0x00 (0000ms, 0395ms total)
T1780 000:503 JLINK_WriteReg(R15, 0x20000020)  returns 0x00 (0000ms, 0395ms total)
T1780 000:503 JLINK_WriteReg(XPSR, 0x01000000)  returns 0x00 (0000ms, 0395ms total)
T1780 000:503 JLINK_WriteReg(MSP, 0x20000800)  returns 0x00 (0000ms, 0395ms total)
T1780 000:503 JLINK_WriteReg(PSP, 0x20000800)  returns 0x00 (0000ms, 0395ms total)
T1780 000:503 JLINK_WriteReg(CFBP, 0x00000000)  returns 0x00 (0000ms, 0395ms total)
T1780 000:503 JLINK_SetBPEx(Addr = 0x20000000, Type = 0xFFFFFFF2)  returns 0x00000002 (0000ms, 0395ms total)
T1780 000:503 JLINK_Go() (0002ms, 0397ms total)
T1780 000:505 JLINK_IsHalted() -- CPU_ReadMem(2 bytes @ 0x20000000)  returns TRUE (0004ms, 0401ms total)
T1780 000:509 JLINK_ReadReg(R15)  returns 0x20000000 (0000ms, 0397ms total)
T1780 000:509 JLINK_ClrBPEx(BPHandle = 0x00000002)  returns 0x00 (0000ms, 0397ms total)
T1780 000:509 JLINK_ReadReg(R0)  returns 0x00000001 (0000ms, 0397ms total)
T1780 000:509 JLINK_WriteReg(R0, 0x08000000)  returns 0x00 (0000ms, 0397ms total)
T1780 000:509 JLINK_WriteReg(R1, 0x00000400)  returns 0x00 (0001ms, 0398ms total)
T1780 000:510 JLINK_WriteReg(R2, 0x000000FF)  returns 0x00 (0000ms, 0398ms total)
T1780 000:510 JLINK_WriteReg(R3, 0x00000000)  returns 0x00 (0000ms, 0398ms total)
T1780 000:510 JLINK_WriteReg(R4, 0x00000000)  returns 0x00 (0000ms, 0398ms total)
T1780 000:510 JLINK_WriteReg(R5, 0x00000000)  returns 0x00 (0000ms, 0398ms total)
T1780 000:510 JLINK_WriteReg(R6, 0x00000000)  returns 0x00 (0000ms, 0398ms total)
T1780 000:510 JLINK_WriteReg(R7, 0x00000000)  returns 0x00 (0000ms, 0398ms total)
T1780 000:510 JLINK_WriteReg(R8, 0x00000000)  returns 0x00 (0000ms, 0398ms total)
T1780 000:510 JLINK_WriteReg(R9, 0x20000160)  returns 0x00 (0000ms, 0398ms total)
T1780 000:510 JLINK_WriteReg(R10, 0x00000000)  returns 0x00 (0000ms, 0398ms total)
T1780 000:510 JLINK_WriteReg(R11, 0x00000000)  returns 0x00 (0000ms, 0398ms total)
T1780 000:510 JLINK_WriteReg(R12, 0x00000000)  returns 0x00 (0000ms, 0398ms total)
T1780 000:510 JLINK_WriteReg(R13, 0x20000800)  returns 0x00 (0000ms, 0398ms total)
T1780 000:510 JLINK_WriteReg(R14, 0x20000001)  returns 0x00 (0000ms, 0398ms total)
T1780 000:510 JLINK_WriteReg(R15, 0x200000B6)  returns 0x00 (0000ms, 0398ms total)
T1780 000:510 JLINK_WriteReg(XPSR, 0x01000000)  returns 0x00 (0000ms, 0398ms total)
T1780 000:510 JLINK_WriteReg(MSP, 0x20000800)  returns 0x00 (0000ms, 0398ms total)
T1780 000:510 JLINK_WriteReg(PSP, 0x20000800)  returns 0x00 (0000ms, 0398ms total)
T1780 000:510 JLINK_WriteReg(CFBP, 0x00000000)  returns 0x00 (0000ms, 0398ms total)
T1780 000:510 JLINK_SetBPEx(Addr = 0x20000000, Type = 0xFFFFFFF2)  returns 0x00000003 (0000ms, 0398ms total)
T1780 000:510 JLINK_Go() (0002ms, 0400ms total)
T1780 000:512 JLINK_IsHalted()  returns FALSE (0001ms, 0401ms total)
T1780 000:538 JLINK_IsHalted() -- CPU_ReadMem(2 bytes @ 0x20000000)  returns TRUE (0004ms, 0404ms total)
T1780 000:542 JLINK_ReadReg(R15)  returns 0x20000000 (0000ms, 0400ms total)
T1780 000:542 JLINK_ClrBPEx(BPHandle = 0x00000003)  returns 0x00 (0000ms, 0400ms total)
T1780 000:542 JLINK_ReadReg(R0)  returns 0x00000000 (0000ms, 0400ms total)
T1780 000:542 JLINK_WriteReg(R0, 0x08000400)  returns 0x00 (0000ms, 0400ms total)
T1780 000:542 JLINK_WriteReg(R1, 0x00000400)  returns 0x00 (0000ms, 0400ms total)
T1780 000:542 JLINK_WriteReg(R2, 0x000000FF)  returns 0x00 (0000ms, 0400ms total)
T1780 000:542 JLINK_WriteReg(R3, 0x00000000)  returns 0x00 (0000ms, 0400ms total)
T1780 000:542 JLINK_WriteReg(R4, 0x00000000)  returns 0x00 (0000ms, 0400ms total)
T1780 000:542 JLINK_WriteReg(R5, 0x00000000)  returns 0x00 (0001ms, 0401ms total)
T1780 000:543 JLINK_WriteReg(R6, 0x00000000)  returns 0x00 (0000ms, 0401ms total)
T1780 000:543 JLINK_WriteReg(R7, 0x00000000)  returns 0x00 (0000ms, 0401ms total)
T1780 000:543 JLINK_WriteReg(R8, 0x00000000)  returns 0x00 (0000ms, 0401ms total)
T1780 000:543 JLINK_WriteReg(R9, 0x20000160)  returns 0x00 (0000ms, 0401ms total)
T1780 000:543 JLINK_WriteReg(R10, 0x00000000)  returns 0x00 (0000ms, 0401ms total)
T1780 000:543 JLINK_WriteReg(R11, 0x00000000)  returns 0x00 (0000ms, 0401ms total)
T1780 000:543 JLINK_WriteReg(R12, 0x00000000)  returns 0x00 (0000ms, 0401ms total)
T1780 000:543 JLINK_WriteReg(R13, 0x20000800)  returns 0x00 (0000ms, 0401ms total)
T1780 000:543 JLINK_WriteReg(R14, 0x20000001)  returns 0x00 (0000ms, 0401ms total)
T1780 000:543 JLINK_WriteReg(R15, 0x20000020)  returns 0x00 (0000ms, 0401ms total)
T1780 000:543 JLINK_WriteReg(XPSR, 0x01000000)  returns 0x00 (0000ms, 0401ms total)
T1780 000:543 JLINK_WriteReg(MSP, 0x20000800)  returns 0x00 (0000ms, 0401ms total)
T1780 000:543 JLINK_WriteReg(PSP, 0x20000800)  returns 0x00 (0000ms, 0401ms total)
T1780 000:543 JLINK_WriteReg(CFBP, 0x00000000)  returns 0x00 (0000ms, 0401ms total)
T1780 000:543 JLINK_SetBPEx(Addr = 0x20000000, Type = 0xFFFFFFF2)  returns 0x00000004 (0000ms, 0401ms total)
T1780 000:543 JLINK_Go() (0002ms, 0403ms total)
T1780 000:545 JLINK_IsHalted() -- CPU_ReadMem(2 bytes @ 0x20000000)  returns TRUE (0004ms, 0407ms total)
T1780 000:549 JLINK_ReadReg(R15)  returns 0x20000000 (0000ms, 0403ms total)
T1780 000:549 JLINK_ClrBPEx(BPHandle = 0x00000004)  returns 0x00 (0000ms, 0403ms total)
T1780 000:549 JLINK_ReadReg(R0)  returns 0x00000001 (0000ms, 0403ms total)
T1780 000:549 JLINK_WriteReg(R0, 0x08000400)  returns 0x00 (0000ms, 0403ms total)
T1780 000:549 JLINK_WriteReg(R1, 0x00000400)  returns 0x00 (0000ms, 0403ms total)
T1780 000:549 JLINK_WriteReg(R2, 0x000000FF)  returns 0x00 (0001ms, 0404ms total)
T1780 000:550 JLINK_WriteReg(R3, 0x00000000)  returns 0x00 (0000ms, 0404ms total)
T1780 000:550 JLINK_WriteReg(R4, 0x00000000)  returns 0x00 (0000ms, 0404ms total)
T1780 000:550 JLINK_WriteReg(R5, 0x00000000)  returns 0x00 (0000ms, 0404ms total)
T1780 000:550 JLINK_WriteReg(R6, 0x00000000)  returns 0x00 (0000ms, 0404ms total)
T1780 000:550 JLINK_WriteReg(R7, 0x00000000)  returns 0x00 (0000ms, 0404ms total)
T1780 000:550 JLINK_WriteReg(R8, 0x00000000)  returns 0x00 (0000ms, 0404ms total)
T1780 000:550 JLINK_WriteReg(R9, 0x20000160)  returns 0x00 (0000ms, 0404ms total)
T1780 000:550 JLINK_WriteReg(R10, 0x00000000)  returns 0x00 (0000ms, 0404ms total)
T1780 000:550 JLINK_WriteReg(R11, 0x00000000)  returns 0x00 (0000ms, 0404ms total)
T1780 000:550 JLINK_WriteReg(R12, 0x00000000)  returns 0x00 (0000ms, 0404ms total)
T1780 000:550 JLINK_WriteReg(R13, 0x20000800)  returns 0x00 (0000ms, 0404ms total)
T1780 000:550 JLINK_WriteReg(R14, 0x20000001)  returns 0x00 (0000ms, 0404ms total)
T1780 000:550 JLINK_WriteReg(R15, 0x200000B6)  returns 0x00 (0000ms, 0404ms total)
T1780 000:550 JLINK_WriteReg(XPSR, 0x01000000)  returns 0x00 (0000ms, 0404ms total)
T1780 000:550 JLINK_WriteReg(MSP, 0x20000800)  returns 0x00 (0000ms, 0404ms total)
T1780 000:550 JLINK_WriteReg(PSP, 0x20000800)  returns 0x00 (0000ms, 0404ms total)
T1780 000:550 JLINK_WriteReg(CFBP, 0x00000000)  returns 0x00 (0000ms, 0404ms total)
T1780 000:550 JLINK_SetBPEx(Addr = 0x20000000, Type = 0xFFFFFFF2)  returns 0x00000005 (0000ms, 0404ms total)
T1780 000:550 JLINK_Go() (0002ms, 0406ms total)
T1780 000:552 JLINK_IsHalted()  returns FALSE (0001ms, 0407ms total)
T1780 000:554 JLINK_IsHalted()  returns FALSE (0000ms, 0406ms total)
T1780 000:555 JLINK_IsHalted()  returns FALSE (0000ms, 0406ms total)
T1780 000:556 JLINK_IsHalted()  returns FALSE (0000ms, 0406ms total)
T1780 000:557 JLINK_IsHalted()  returns FALSE (0000ms, 0406ms total)
T1780 000:558 JLINK_IsHalted()  returns FALSE (0000ms, 0406ms total)
T1780 000:559 JLINK_IsHalted()  returns FALSE (0000ms, 0406ms total)
T1780 000:560 JLINK_IsHalted()  returns FALSE (0000ms, 0406ms total)
T1780 000:561 JLINK_IsHalted()  returns FALSE (0000ms, 0406ms total)
T1780 000:562 JLINK_IsHalted()  returns FALSE (0000ms, 0406ms total)
T1780 000:563 JLINK_IsHalted()  returns FALSE (0000ms, 0406ms total)
T1780 000:567 JLINK_IsHalted()  returns FALSE (0001ms, 0407ms total)
T1780 000:569 JLINK_IsHalted()  returns FALSE (0001ms, 0407ms total)
T1780 000:571 JLINK_IsHalted()  returns FALSE (0001ms, 0407ms total)
T1780 000:573 JLINK_IsHalted()  returns FALSE (0001ms, 0407ms total)
T1780 000:575 JLINK_IsHalted() -- CPU_ReadMem(2 bytes @ 0x20000000)  returns TRUE (0004ms, 0410ms total)
T1780 000:579 JLINK_ReadReg(R15)  returns 0x20000000 (0000ms, 0406ms total)
T1780 000:579 JLINK_ClrBPEx(BPHandle = 0x00000005)  returns 0x00 (0000ms, 0406ms total)
T1780 000:579 JLINK_ReadReg(R0)  returns 0x00000000 (0000ms, 0406ms total)
T1780 000:579 JLINK_WriteReg(R0, 0x08000800)  returns 0x00 (0000ms, 0406ms total)
T1780 000:579 JLINK_WriteReg(R1, 0x00000400)  returns 0x00 (0000ms, 0406ms total)
T1780 000:579 JLINK_WriteReg(R2, 0x000000FF)  returns 0x00 (0000ms, 0406ms total)
T1780 000:579 JLINK_WriteReg(R3, 0x00000000)  returns 0x00 (0000ms, 0406ms total)
T1780 000:579 JLINK_WriteReg(R4, 0x00000000)  returns 0x00 (0000ms, 0406ms total)
T1780 000:579 JLINK_WriteReg(R5, 0x00000000)  returns 0x00 (0000ms, 0406ms total)
T1780 000:579 JLINK_WriteReg(R6, 0x00000000)  returns 0x00 (0000ms, 0406ms total)
T1780 000:579 JLINK_WriteReg(R7, 0x00000000)  returns 0x00 (0000ms, 0406ms total)
T1780 000:579 JLINK_WriteReg(R8, 0x00000000)  returns 0x00 (0000ms, 0406ms total)
T1780 000:579 JLINK_WriteReg(R9, 0x20000160)  returns 0x00 (0001ms, 0407ms total)
T1780 000:580 JLINK_WriteReg(R10, 0x00000000)  returns 0x00 (0000ms, 0407ms total)
T1780 000:580 JLINK_WriteReg(R11, 0x00000000)  returns 0x00 (0000ms, 0407ms total)
T1780 000:580 JLINK_WriteReg(R12, 0x00000000)  returns 0x00 (0000ms, 0407ms total)
T1780 000:580 JLINK_WriteReg(R13, 0x20000800)  returns 0x00 (0000ms, 0407ms total)
T1780 000:580 JLINK_WriteReg(R14, 0x20000001)  returns 0x00 (0000ms, 0407ms total)
T1780 000:580 JLINK_WriteReg(R15, 0x20000020)  returns 0x00 (0000ms, 0407ms total)
T1780 000:580 JLINK_WriteReg(XPSR, 0x01000000)  returns 0x00 (0000ms, 0407ms total)
T1780 000:580 JLINK_WriteReg(MSP, 0x20000800)  returns 0x00 (0000ms, 0407ms total)
T1780 000:580 JLINK_WriteReg(PSP, 0x20000800)  returns 0x00 (0000ms, 0407ms total)
T1780 000:580 JLINK_WriteReg(CFBP, 0x00000000)  returns 0x00 (0000ms, 0407ms total)
T1780 000:580 JLINK_SetBPEx(Addr = 0x20000000, Type = 0xFFFFFFF2)  returns 0x00000006 (0000ms, 0407ms total)
T1780 000:580 JLINK_Go() (0002ms, 0409ms total)
T1780 000:582 JLINK_IsHalted() -- CPU_ReadMem(2 bytes @ 0x20000000)  returns TRUE (0004ms, 0413ms total)
T1780 000:586 JLINK_ReadReg(R15)  returns 0x20000000 (0000ms, 0409ms total)
T1780 000:586 JLINK_ClrBPEx(BPHandle = 0x00000006)  returns 0x00 (0000ms, 0409ms total)
T1780 000:586 JLINK_ReadReg(R0)  returns 0x00000001 (0000ms, 0409ms total)
T1780 000:586 JLINK_WriteReg(R0, 0x08000800)  returns 0x00 (0000ms, 0409ms total)
T1780 000:586 JLINK_WriteReg(R1, 0x00000400)  returns 0x00 (0000ms, 0409ms total)
T1780 000:586 JLINK_WriteReg(R2, 0x000000FF)  returns 0x00 (0000ms, 0409ms total)
T1780 000:586 JLINK_WriteReg(R3, 0x00000000)  returns 0x00 (0000ms, 0409ms total)
T1780 000:586 JLINK_WriteReg(R4, 0x00000000)  returns 0x00 (0000ms, 0409ms total)
T1780 000:586 JLINK_WriteReg(R5, 0x00000000)  returns 0x00 (0000ms, 0409ms total)
T1780 000:586 JLINK_WriteReg(R6, 0x00000000)  returns 0x00 (0000ms, 0409ms total)
T1780 000:586 JLINK_WriteReg(R7, 0x00000000)  returns 0x00 (0000ms, 0409ms total)
T1780 000:586 JLINK_WriteReg(R8, 0x00000000)  returns 0x00 (0000ms, 0409ms total)
T1780 000:586 JLINK_WriteReg(R9, 0x20000160)  returns 0x00 (0000ms, 0409ms total)
T1780 000:586 JLINK_WriteReg(R10, 0x00000000)  returns 0x00 (0000ms, 0409ms total)
T1780 000:586 JLINK_WriteReg(R11, 0x00000000)  returns 0x00 (0000ms, 0409ms total)
T1780 000:586 JLINK_WriteReg(R12, 0x00000000)  returns 0x00 (0000ms, 0409ms total)
T1780 000:586 JLINK_WriteReg(R13, 0x20000800)  returns 0x00 (0000ms, 0409ms total)
T1780 000:586 JLINK_WriteReg(R14, 0x20000001)  returns 0x00 (0000ms, 0409ms total)
T1780 000:586 JLINK_WriteReg(R15, 0x200000B6)  returns 0x00 (0000ms, 0409ms total)
T1780 000:586 JLINK_WriteReg(XPSR, 0x01000000)  returns 0x00 (0000ms, 0409ms total)
T1780 000:586 JLINK_WriteReg(MSP, 0x20000800)  returns 0x00 (0000ms, 0409ms total)
T1780 000:586 JLINK_WriteReg(PSP, 0x20000800)  returns 0x00 (0000ms, 0409ms total)
T1780 000:586 JLINK_WriteReg(CFBP, 0x00000000)  returns 0x00 (0000ms, 0409ms total)
T1780 000:587 JLINK_SetBPEx(Addr = 0x20000000, Type = 0xFFFFFFF2)  returns 0x00000007 (0000ms, 0410ms total)
T1780 000:587 JLINK_Go() (0002ms, 0412ms total)
T1780 000:589 JLINK_IsHalted()  returns FALSE (0001ms, 0413ms total)
T1780 000:593 JLINK_IsHalted()  returns FALSE (0001ms, 0413ms total)
T1780 000:595 JLINK_IsHalted()  returns FALSE (0001ms, 0413ms total)
T1780 000:597 JLINK_IsHalted()  returns FALSE (0001ms, 0413ms total)
T1780 000:599 JLINK_IsHalted()  returns FALSE (0001ms, 0413ms total)
T1780 000:603 JLINK_IsHalted()  returns FALSE (0001ms, 0413ms total)
T1780 000:605 JLINK_IsHalted()  returns FALSE (0001ms, 0413ms total)
T1780 000:607 JLINK_IsHalted()  returns FALSE (0001ms, 0413ms total)
T1780 000:609 JLINK_IsHalted()  returns FALSE (0001ms, 0413ms total)
T1780 000:616 JLINK_IsHalted() -- CPU_ReadMem(2 bytes @ 0x20000000)  returns TRUE (0004ms, 0416ms total)
T1780 000:620 JLINK_ReadReg(R15)  returns 0x20000000 (0000ms, 0412ms total)
T1780 000:620 JLINK_ClrBPEx(BPHandle = 0x00000007)  returns 0x00 (0000ms, 0412ms total)
T1780 000:620 JLINK_ReadReg(R0)  returns 0x00000000 (0000ms, 0412ms total)
T1780 000:621 JLINK_WriteReg(R0, 0x08000C00)  returns 0x00 (0000ms, 0412ms total)
T1780 000:621 JLINK_WriteReg(R1, 0x00000400)  returns 0x00 (0000ms, 0412ms total)
T1780 000:621 JLINK_WriteReg(R2, 0x000000FF)  returns 0x00 (0000ms, 0412ms total)
T1780 000:621 JLINK_WriteReg(R3, 0x00000000)  returns 0x00 (0000ms, 0412ms total)
T1780 000:621 JLINK_WriteReg(R4, 0x00000000)  returns 0x00 (0000ms, 0412ms total)
T1780 000:621 JLINK_WriteReg(R5, 0x00000000)  returns 0x00 (0000ms, 0412ms total)
T1780 000:622 JLINK_WriteReg(R6, 0x00000000)  returns 0x00 (0000ms, 0413ms total)
T1780 000:622 JLINK_WriteReg(R7, 0x00000000)  returns 0x00 (0000ms, 0413ms total)
T1780 000:622 JLINK_WriteReg(R8, 0x00000000)  returns 0x00 (0000ms, 0413ms total)
T1780 000:622 JLINK_WriteReg(R9, 0x20000160)  returns 0x00 (0000ms, 0413ms total)
T1780 000:622 JLINK_WriteReg(R10, 0x00000000)  returns 0x00 (0000ms, 0413ms total)
T1780 000:622 JLINK_WriteReg(R11, 0x00000000)  returns 0x00 (0000ms, 0413ms total)
T1780 000:622 JLINK_WriteReg(R12, 0x00000000)  returns 0x00 (0000ms, 0413ms total)
T1780 000:622 JLINK_WriteReg(R13, 0x20000800)  returns 0x00 (0000ms, 0413ms total)
T1780 000:622 JLINK_WriteReg(R14, 0x20000001)  returns 0x00 (0000ms, 0413ms total)
T1780 000:622 JLINK_WriteReg(R15, 0x20000020)  returns 0x00 (0000ms, 0413ms total)
T1780 000:622 JLINK_WriteReg(XPSR, 0x01000000)  returns 0x00 (0000ms, 0413ms total)
T1780 000:622 JLINK_WriteReg(MSP, 0x20000800)  returns 0x00 (0000ms, 0413ms total)
T1780 000:622 JLINK_WriteReg(PSP, 0x20000800)  returns 0x00 (0000ms, 0413ms total)
T1780 000:622 JLINK_WriteReg(CFBP, 0x00000000)  returns 0x00 (0000ms, 0413ms total)
T1780 000:623 JLINK_SetBPEx(Addr = 0x20000000, Type = 0xFFFFFFF2)  returns 0x00000008 (0000ms, 0414ms total)
T1780 000:623 JLINK_Go() (0002ms, 0416ms total)
T1780 000:625 JLINK_IsHalted() -- CPU_ReadMem(2 bytes @ 0x20000000)  returns TRUE (0005ms, 0421ms total)
T1780 000:630 JLINK_ReadReg(R15)  returns 0x20000000 (0000ms, 0416ms total)
T1780 000:630 JLINK_ClrBPEx(BPHandle = 0x00000008)  returns 0x00 (0000ms, 0416ms total)
T1780 000:630 JLINK_ReadReg(R0)  returns 0x00000001 (0000ms, 0416ms total)
T1780 000:630 JLINK_WriteReg(R0, 0x08000C00)  returns 0x00 (0000ms, 0416ms total)
T1780 000:630 JLINK_WriteReg(R1, 0x00000400)  returns 0x00 (0000ms, 0416ms total)
T1780 000:630 JLINK_WriteReg(R2, 0x000000FF)  returns 0x00 (0000ms, 0416ms total)
T1780 000:630 JLINK_WriteReg(R3, 0x00000000)  returns 0x00 (0000ms, 0416ms total)
T1780 000:631 JLINK_WriteReg(R4, 0x00000000)  returns 0x00 (0000ms, 0417ms total)
T1780 000:631 JLINK_WriteReg(R5, 0x00000000)  returns 0x00 (0000ms, 0417ms total)
T1780 000:631 JLINK_WriteReg(R6, 0x00000000)  returns 0x00 (0000ms, 0417ms total)
T1780 000:631 JLINK_WriteReg(R7, 0x00000000)  returns 0x00 (0000ms, 0417ms total)
T1780 000:631 JLINK_WriteReg(R8, 0x00000000)  returns 0x00 (0000ms, 0417ms total)
T1780 000:631 JLINK_WriteReg(R9, 0x20000160)  returns 0x00 (0000ms, 0417ms total)
T1780 000:631 JLINK_WriteReg(R10, 0x00000000)  returns 0x00 (0000ms, 0417ms total)
T1780 000:631 JLINK_WriteReg(R11, 0x00000000)  returns 0x00 (0000ms, 0417ms total)
T1780 000:631 JLINK_WriteReg(R12, 0x00000000)  returns 0x00 (0000ms, 0417ms total)
T1780 000:631 JLINK_WriteReg(R13, 0x20000800)  returns 0x00 (0000ms, 0417ms total)
T1780 000:631 JLINK_WriteReg(R14, 0x20000001)  returns 0x00 (0000ms, 0417ms total)
T1780 000:631 JLINK_WriteReg(R15, 0x200000B6)  returns 0x00 (0000ms, 0417ms total)
T1780 000:631 JLINK_WriteReg(XPSR, 0x01000000)  returns 0x00 (0000ms, 0417ms total)
T1780 000:631 JLINK_WriteReg(MSP, 0x20000800)  returns 0x00 (0000ms, 0417ms total)
T1780 000:632 JLINK_WriteReg(PSP, 0x20000800)  returns 0x00 (0000ms, 0418ms total)
T1780 000:632 JLINK_WriteReg(CFBP, 0x00000000)  returns 0x00 (0000ms, 0418ms total)
T1780 000:632 JLINK_SetBPEx(Addr = 0x20000000, Type = 0xFFFFFFF2)  returns 0x00000009 (0000ms, 0418ms total)
T1780 000:632 JLINK_Go() (0002ms, 0420ms total)
T1780 000:634 JLINK_IsHalted()  returns FALSE (0001ms, 0421ms total)
T1780 000:642 JLINK_IsHalted()  returns FALSE (0001ms, 0421ms total)
T1780 000:644 JLINK_IsHalted()  returns FALSE (0001ms, 0421ms total)
T1780 000:646 JLINK_IsHalted()  returns FALSE (0001ms, 0421ms total)
T1780 000:648 JLINK_IsHalted()  returns FALSE (0000ms, 0420ms total)
T1780 000:649 JLINK_IsHalted()  returns FALSE (0000ms, 0420ms total)
T1780 000:650 JLINK_IsHalted()  returns FALSE (0000ms, 0420ms total)
T1780 000:651 JLINK_IsHalted()  returns FALSE (0000ms, 0420ms total)
T1780 000:652 JLINK_IsHalted()  returns FALSE (0001ms, 0421ms total)
T1780 000:654 JLINK_IsHalted()  returns FALSE (0001ms, 0421ms total)
T1780 000:656 JLINK_IsHalted() -- CPU_ReadMem(2 bytes @ 0x20000000)  returns TRUE (0004ms, 0424ms total)
T1780 000:660 JLINK_ReadReg(R15)  returns 0x20000000 (0000ms, 0420ms total)
T1780 000:660 JLINK_ClrBPEx(BPHandle = 0x00000009)  returns 0x00 (0000ms, 0420ms total)
T1780 000:660 JLINK_ReadReg(R0)  returns 0x00000000 (0000ms, 0420ms total)
T1780 000:661 JLINK_WriteReg(R0, 0x08001000)  returns 0x00 (0000ms, 0420ms total)
T1780 000:661 JLINK_WriteReg(R1, 0x00000400)  returns 0x00 (0000ms, 0420ms total)
T1780 000:661 JLINK_WriteReg(R2, 0x000000FF)  returns 0x00 (0000ms, 0420ms total)
T1780 000:661 JLINK_WriteReg(R3, 0x00000000)  returns 0x00 (0000ms, 0420ms total)
T1780 000:661 JLINK_WriteReg(R4, 0x00000000)  returns 0x00 (0000ms, 0420ms total)
T1780 000:661 JLINK_WriteReg(R5, 0x00000000)  returns 0x00 (0000ms, 0420ms total)
T1780 000:661 JLINK_WriteReg(R6, 0x00000000)  returns 0x00 (0000ms, 0420ms total)
T1780 000:661 JLINK_WriteReg(R7, 0x00000000)  returns 0x00 (0000ms, 0420ms total)
T1780 000:661 JLINK_WriteReg(R8, 0x00000000)  returns 0x00 (0000ms, 0420ms total)
T1780 000:661 JLINK_WriteReg(R9, 0x20000160)  returns 0x00 (0000ms, 0420ms total)
T1780 000:661 JLINK_WriteReg(R10, 0x00000000)  returns 0x00 (0000ms, 0420ms total)
T1780 000:661 JLINK_WriteReg(R11, 0x00000000)  returns 0x00 (0000ms, 0420ms total)
T1780 000:661 JLINK_WriteReg(R12, 0x00000000)  returns 0x00 (0001ms, 0421ms total)
T1780 000:662 JLINK_WriteReg(R13, 0x20000800)  returns 0x00 (0000ms, 0421ms total)
T1780 000:662 JLINK_WriteReg(R14, 0x20000001)  returns 0x00 (0000ms, 0421ms total)
T1780 000:662 JLINK_WriteReg(R15, 0x20000020)  returns 0x00 (0000ms, 0421ms total)
T1780 000:662 JLINK_WriteReg(XPSR, 0x01000000)  returns 0x00 (0000ms, 0421ms total)
T1780 000:662 JLINK_WriteReg(MSP, 0x20000800)  returns 0x00 (0000ms, 0421ms total)
T1780 000:662 JLINK_WriteReg(PSP, 0x20000800)  returns 0x00 (0000ms, 0421ms total)
T1780 000:662 JLINK_WriteReg(CFBP, 0x00000000)  returns 0x00 (0000ms, 0421ms total)
T1780 000:662 JLINK_SetBPEx(Addr = 0x20000000, Type = 0xFFFFFFF2)  returns 0x0000000A (0000ms, 0421ms total)
T1780 000:662 JLINK_Go() (0002ms, 0423ms total)
T1780 000:664 JLINK_IsHalted() -- CPU_ReadMem(2 bytes @ 0x20000000)  returns TRUE (0005ms, 0428ms total)
T1780 000:669 JLINK_ReadReg(R15)  returns 0x20000000 (0000ms, 0423ms total)
T1780 000:669 JLINK_ClrBPEx(BPHandle = 0x0000000A)  returns 0x00 (0000ms, 0423ms total)
T1780 000:669 JLINK_ReadReg(R0)  returns 0x00000001 (0000ms, 0423ms total)
T1780 000:669 JLINK_WriteReg(R0, 0x08001000)  returns 0x00 (0000ms, 0423ms total)
T1780 000:669 JLINK_WriteReg(R1, 0x00000400)  returns 0x00 (0000ms, 0423ms total)
T1780 000:669 JLINK_WriteReg(R2, 0x000000FF)  returns 0x00 (0000ms, 0423ms total)
T1780 000:669 JLINK_WriteReg(R3, 0x00000000)  returns 0x00 (0000ms, 0423ms total)
T1780 000:669 JLINK_WriteReg(R4, 0x00000000)  returns 0x00 (0000ms, 0423ms total)
T1780 000:669 JLINK_WriteReg(R5, 0x00000000)  returns 0x00 (0001ms, 0424ms total)
T1780 000:670 JLINK_WriteReg(R6, 0x00000000)  returns 0x00 (0000ms, 0424ms total)
T1780 000:670 JLINK_WriteReg(R7, 0x00000000)  returns 0x00 (0000ms, 0424ms total)
T1780 000:670 JLINK_WriteReg(R8, 0x00000000)  returns 0x00 (0000ms, 0424ms total)
T1780 000:670 JLINK_WriteReg(R9, 0x20000160)  returns 0x00 (0000ms, 0424ms total)
T1780 000:670 JLINK_WriteReg(R10, 0x00000000)  returns 0x00 (0000ms, 0424ms total)
T1780 000:670 JLINK_WriteReg(R11, 0x00000000)  returns 0x00 (0000ms, 0424ms total)
T1780 000:670 JLINK_WriteReg(R12, 0x00000000)  returns 0x00 (0000ms, 0424ms total)
T1780 000:670 JLINK_WriteReg(R13, 0x20000800)  returns 0x00 (0000ms, 0424ms total)
T1780 000:670 JLINK_WriteReg(R14, 0x20000001)  returns 0x00 (0000ms, 0424ms total)
T1780 000:670 JLINK_WriteReg(R15, 0x200000B6)  returns 0x00 (0000ms, 0424ms total)
T1780 000:670 JLINK_WriteReg(XPSR, 0x01000000)  returns 0x00 (0000ms, 0424ms total)
T1780 000:670 JLINK_WriteReg(MSP, 0x20000800)  returns 0x00 (0000ms, 0424ms total)
T1780 000:670 JLINK_WriteReg(PSP, 0x20000800)  returns 0x00 (0000ms, 0424ms total)
T1780 000:670 JLINK_WriteReg(CFBP, 0x00000000)  returns 0x00 (0000ms, 0424ms total)
T1780 000:670 JLINK_SetBPEx(Addr = 0x20000000, Type = 0xFFFFFFF2)  returns 0x0000000B (0000ms, 0424ms total)
T1780 000:670 JLINK_Go() (0003ms, 0427ms total)
T1780 000:673 JLINK_IsHalted()  returns FALSE (0001ms, 0428ms total)
T1780 000:680 JLINK_IsHalted()  returns FALSE (0001ms, 0428ms total)
T1780 000:682 JLINK_IsHalted()  returns FALSE (0001ms, 0428ms total)
T1780 000:684 JLINK_IsHalted()  returns FALSE (0001ms, 0428ms total)
T1780 000:686 JLINK_IsHalted()  returns FALSE (0001ms, 0428ms total)
T1780 000:690 JLINK_IsHalted()  returns FALSE (0001ms, 0428ms total)
T1780 000:692 JLINK_IsHalted()  returns FALSE (0001ms, 0428ms total)
T1780 000:694 JLINK_IsHalted()  returns FALSE (0001ms, 0428ms total)
T1780 000:696 JLINK_IsHalted() -- CPU_ReadMem(2 bytes @ 0x20000000)  returns TRUE (0004ms, 0431ms total)
T1780 000:700 JLINK_ReadReg(R15)  returns 0x20000000 (0000ms, 0427ms total)
T1780 000:700 JLINK_ClrBPEx(BPHandle = 0x0000000B)  returns 0x00 (0000ms, 0427ms total)
T1780 000:700 JLINK_ReadReg(R0)  returns 0x00000000 (0000ms, 0427ms total)
T1780 000:701 JLINK_WriteReg(R0, 0x08001400)  returns 0x00 (0000ms, 0427ms total)
T1780 000:701 JLINK_WriteReg(R1, 0x00000400)  returns 0x00 (0000ms, 0427ms total)
T1780 000:701 JLINK_WriteReg(R2, 0x000000FF)  returns 0x00 (0000ms, 0427ms total)
T1780 000:701 JLINK_WriteReg(R3, 0x00000000)  returns 0x00 (0000ms, 0427ms total)
T1780 000:701 JLINK_WriteReg(R4, 0x00000000)  returns 0x00 (0000ms, 0427ms total)
T1780 000:701 JLINK_WriteReg(R5, 0x00000000)  returns 0x00 (0000ms, 0427ms total)
T1780 000:701 JLINK_WriteReg(R6, 0x00000000)  returns 0x00 (0000ms, 0427ms total)
T1780 000:701 JLINK_WriteReg(R7, 0x00000000)  returns 0x00 (0000ms, 0427ms total)
T1780 000:701 JLINK_WriteReg(R8, 0x00000000)  returns 0x00 (0000ms, 0427ms total)
T1780 000:701 JLINK_WriteReg(R9, 0x20000160)  returns 0x00 (0000ms, 0427ms total)
T1780 000:701 JLINK_WriteReg(R10, 0x00000000)  returns 0x00 (0000ms, 0427ms total)
T1780 000:701 JLINK_WriteReg(R11, 0x00000000)  returns 0x00 (0000ms, 0427ms total)
T1780 000:701 JLINK_WriteReg(R12, 0x00000000)  returns 0x00 (0000ms, 0427ms total)
T1780 000:701 JLINK_WriteReg(R13, 0x20000800)  returns 0x00 (0000ms, 0427ms total)
T1780 000:701 JLINK_WriteReg(R14, 0x20000001)  returns 0x00 (0000ms, 0427ms total)
T1780 000:701 JLINK_WriteReg(R15, 0x20000020)  returns 0x00 (0000ms, 0427ms total)
T1780 000:701 JLINK_WriteReg(XPSR, 0x01000000)  returns 0x00 (0000ms, 0427ms total)
T1780 000:701 JLINK_WriteReg(MSP, 0x20000800)  returns 0x00 (0001ms, 0428ms total)
T1780 000:702 JLINK_WriteReg(PSP, 0x20000800)  returns 0x00 (0000ms, 0428ms total)
T1780 000:702 JLINK_WriteReg(CFBP, 0x00000000)  returns 0x00 (0000ms, 0428ms total)
T1780 000:702 JLINK_SetBPEx(Addr = 0x20000000, Type = 0xFFFFFFF2)  returns 0x0000000C (0000ms, 0428ms total)
T1780 000:702 JLINK_Go() (0002ms, 0430ms total)
T1780 000:704 JLINK_IsHalted() -- CPU_ReadMem(2 bytes @ 0x20000000)  returns TRUE (0004ms, 0434ms total)
T1780 000:708 JLINK_ReadReg(R15)  returns 0x20000000 (0000ms, 0430ms total)
T1780 000:708 JLINK_ClrBPEx(BPHandle = 0x0000000C)  returns 0x00 (0000ms, 0430ms total)
T1780 000:708 JLINK_ReadReg(R0)  returns 0x00000001 (0000ms, 0430ms total)
T1780 000:708 JLINK_WriteReg(R0, 0x08001400)  returns 0x00 (0000ms, 0430ms total)
T1780 000:708 JLINK_WriteReg(R1, 0x00000400)  returns 0x00 (0000ms, 0430ms total)
T1780 000:708 JLINK_WriteReg(R2, 0x000000FF)  returns 0x00 (0000ms, 0430ms total)
T1780 000:708 JLINK_WriteReg(R3, 0x00000000)  returns 0x00 (0000ms, 0430ms total)
T1780 000:708 JLINK_WriteReg(R4, 0x00000000)  returns 0x00 (0000ms, 0430ms total)
T1780 000:708 JLINK_WriteReg(R5, 0x00000000)  returns 0x00 (0001ms, 0431ms total)
T1780 000:709 JLINK_WriteReg(R6, 0x00000000)  returns 0x00 (0000ms, 0431ms total)
T1780 000:709 JLINK_WriteReg(R7, 0x00000000)  returns 0x00 (0000ms, 0431ms total)
T1780 000:709 JLINK_WriteReg(R8, 0x00000000)  returns 0x00 (0000ms, 0431ms total)
T1780 000:709 JLINK_WriteReg(R9, 0x20000160)  returns 0x00 (0000ms, 0431ms total)
T1780 000:709 JLINK_WriteReg(R10, 0x00000000)  returns 0x00 (0000ms, 0431ms total)
T1780 000:709 JLINK_WriteReg(R11, 0x00000000)  returns 0x00 (0000ms, 0431ms total)
T1780 000:709 JLINK_WriteReg(R12, 0x00000000)  returns 0x00 (0000ms, 0431ms total)
T1780 000:709 JLINK_WriteReg(R13, 0x20000800)  returns 0x00 (0000ms, 0431ms total)
T1780 000:709 JLINK_WriteReg(R14, 0x20000001)  returns 0x00 (0000ms, 0431ms total)
T1780 000:709 JLINK_WriteReg(R15, 0x200000B6)  returns 0x00 (0000ms, 0431ms total)
T1780 000:709 JLINK_WriteReg(XPSR, 0x01000000)  returns 0x00 (0000ms, 0431ms total)
T1780 000:709 JLINK_WriteReg(MSP, 0x20000800)  returns 0x00 (0000ms, 0431ms total)
T1780 000:709 JLINK_WriteReg(PSP, 0x20000800)  returns 0x00 (0000ms, 0431ms total)
T1780 000:709 JLINK_WriteReg(CFBP, 0x00000000)  returns 0x00 (0000ms, 0431ms total)
T1780 000:709 JLINK_SetBPEx(Addr = 0x20000000, Type = 0xFFFFFFF2)  returns 0x0000000D (0000ms, 0431ms total)
T1780 000:709 JLINK_Go() (0002ms, 0433ms total)
T1780 000:711 JLINK_IsHalted()  returns FALSE (0001ms, 0434ms total)
T1780 000:715 JLINK_IsHalted()  returns FALSE (0001ms, 0434ms total)
T1780 000:717 JLINK_IsHalted()  returns FALSE (0001ms, 0434ms total)
T1780 000:719 JLINK_IsHalted()  returns FALSE (0001ms, 0434ms total)
T1780 000:724 JLINK_IsHalted()  returns FALSE (0001ms, 0434ms total)
T1780 000:726 JLINK_IsHalted()  returns FALSE (0001ms, 0434ms total)
T1780 000:728 JLINK_IsHalted()  returns FALSE (0001ms, 0434ms total)
T1780 000:730 JLINK_IsHalted()  returns FALSE (0001ms, 0434ms total)
T1780 000:732 JLINK_IsHalted()  returns FALSE (0001ms, 0434ms total)
T1780 000:734 JLINK_IsHalted() -- CPU_ReadMem(2 bytes @ 0x20000000)  returns TRUE (0004ms, 0437ms total)
T1780 000:738 JLINK_ReadReg(R15)  returns 0x20000000 (0000ms, 0433ms total)
T1780 000:738 JLINK_ClrBPEx(BPHandle = 0x0000000D)  returns 0x00 (0000ms, 0433ms total)
T1780 000:738 JLINK_ReadReg(R0)  returns 0x00000000 (0000ms, 0433ms total)
T1780 000:739 JLINK_WriteReg(R0, 0x08001800)  returns 0x00 (0000ms, 0433ms total)
T1780 000:739 JLINK_WriteReg(R1, 0x00000400)  returns 0x00 (0000ms, 0433ms total)
T1780 000:739 JLINK_WriteReg(R2, 0x000000FF)  returns 0x00 (0000ms, 0433ms total)
T1780 000:739 JLINK_WriteReg(R3, 0x00000000)  returns 0x00 (0000ms, 0433ms total)
T1780 000:739 JLINK_WriteReg(R4, 0x00000000)  returns 0x00 (0000ms, 0433ms total)
T1780 000:739 JLINK_WriteReg(R5, 0x00000000)  returns 0x00 (0000ms, 0433ms total)
T1780 000:739 JLINK_WriteReg(R6, 0x00000000)  returns 0x00 (0000ms, 0433ms total)
T1780 000:739 JLINK_WriteReg(R7, 0x00000000)  returns 0x00 (0000ms, 0433ms total)
T1780 000:739 JLINK_WriteReg(R8, 0x00000000)  returns 0x00 (0000ms, 0433ms total)
T1780 000:739 JLINK_WriteReg(R9, 0x20000160)  returns 0x00 (0000ms, 0433ms total)
T1780 000:739 JLINK_WriteReg(R10, 0x00000000)  returns 0x00 (0000ms, 0433ms total)
T1780 000:739 JLINK_WriteReg(R11, 0x00000000)  returns 0x00 (0000ms, 0433ms total)
T1780 000:739 JLINK_WriteReg(R12, 0x00000000)  returns 0x00 (0000ms, 0433ms total)
T1780 000:739 JLINK_WriteReg(R13, 0x20000800)  returns 0x00 (0000ms, 0433ms total)
T1780 000:739 JLINK_WriteReg(R14, 0x20000001)  returns 0x00 (0000ms, 0433ms total)
T1780 000:739 JLINK_WriteReg(R15, 0x20000020)  returns 0x00 (0000ms, 0433ms total)
T1780 000:739 JLINK_WriteReg(XPSR, 0x01000000)  returns 0x00 (0000ms, 0433ms total)
T1780 000:740 JLINK_WriteReg(MSP, 0x20000800)  returns 0x00 (0000ms, 0434ms total)
T1780 000:740 JLINK_WriteReg(PSP, 0x20000800)  returns 0x00 (0000ms, 0434ms total)
T1780 000:740 JLINK_WriteReg(CFBP, 0x00000000)  returns 0x00 (0000ms, 0434ms total)
T1780 000:740 JLINK_SetBPEx(Addr = 0x20000000, Type = 0xFFFFFFF2)  returns 0x0000000E (0000ms, 0434ms total)
T1780 000:740 JLINK_Go() (0002ms, 0436ms total)
T1780 000:742 JLINK_IsHalted() -- CPU_ReadMem(2 bytes @ 0x20000000)  returns TRUE (0004ms, 0440ms total)
T1780 000:746 JLINK_ReadReg(R15)  returns 0x20000000 (0000ms, 0436ms total)
T1780 000:746 JLINK_ClrBPEx(BPHandle = 0x0000000E)  returns 0x00 (0000ms, 0436ms total)
T1780 000:746 JLINK_ReadReg(R0)  returns 0x00000001 (0000ms, 0436ms total)
T1780 000:746 JLINK_WriteReg(R0, 0x08001800)  returns 0x00 (0000ms, 0436ms total)
T1780 000:746 JLINK_WriteReg(R1, 0x00000400)  returns 0x00 (0000ms, 0436ms total)
T1780 000:746 JLINK_WriteReg(R2, 0x000000FF)  returns 0x00 (0000ms, 0436ms total)
T1780 000:746 JLINK_WriteReg(R3, 0x00000000)  returns 0x00 (0000ms, 0436ms total)
T1780 000:747 JLINK_WriteReg(R4, 0x00000000)  returns 0x00 (0000ms, 0437ms total)
T1780 000:747 JLINK_WriteReg(R5, 0x00000000)  returns 0x00 (0000ms, 0437ms total)
T1780 000:747 JLINK_WriteReg(R6, 0x00000000)  returns 0x00 (0000ms, 0437ms total)
T1780 000:747 JLINK_WriteReg(R7, 0x00000000)  returns 0x00 (0000ms, 0437ms total)
T1780 000:747 JLINK_WriteReg(R8, 0x00000000)  returns 0x00 (0000ms, 0437ms total)
T1780 000:747 JLINK_WriteReg(R9, 0x20000160)  returns 0x00 (0000ms, 0437ms total)
T1780 000:747 JLINK_WriteReg(R10, 0x00000000)  returns 0x00 (0000ms, 0437ms total)
T1780 000:747 JLINK_WriteReg(R11, 0x00000000)  returns 0x00 (0000ms, 0437ms total)
T1780 000:747 JLINK_WriteReg(R12, 0x00000000)  returns 0x00 (0000ms, 0437ms total)
T1780 000:747 JLINK_WriteReg(R13, 0x20000800)  returns 0x00 (0000ms, 0437ms total)
T1780 000:747 JLINK_WriteReg(R14, 0x20000001)  returns 0x00 (0000ms, 0437ms total)
T1780 000:747 JLINK_WriteReg(R15, 0x200000B6)  returns 0x00 (0000ms, 0437ms total)
T1780 000:747 JLINK_WriteReg(XPSR, 0x01000000)  returns 0x00 (0000ms, 0437ms total)
T1780 000:747 JLINK_WriteReg(MSP, 0x20000800)  returns 0x00 (0000ms, 0437ms total)
T1780 000:747 JLINK_WriteReg(PSP, 0x20000800)  returns 0x00 (0000ms, 0437ms total)
T1780 000:747 JLINK_WriteReg(CFBP, 0x00000000)  returns 0x00 (0000ms, 0437ms total)
T1780 000:747 JLINK_SetBPEx(Addr = 0x20000000, Type = 0xFFFFFFF2)  returns 0x0000000F (0000ms, 0437ms total)
T1780 000:747 JLINK_Go() (0003ms, 0440ms total)
T1780 000:750 JLINK_IsHalted()  returns FALSE (0001ms, 0441ms total)
T1780 000:755 JLINK_IsHalted()  returns FALSE (0001ms, 0441ms total)
T1780 000:757 JLINK_IsHalted()  returns FALSE (0001ms, 0441ms total)
T1780 000:759 JLINK_IsHalted()  returns FALSE (0001ms, 0441ms total)
T1780 000:761 JLINK_IsHalted()  returns FALSE (0001ms, 0441ms total)
T1780 000:763 JLINK_IsHalted()  returns FALSE (0001ms, 0441ms total)
T1780 000:765 JLINK_IsHalted()  returns FALSE (0001ms, 0441ms total)
T1780 000:768 JLINK_IsHalted()  returns FALSE (0001ms, 0441ms total)
T1780 000:770 JLINK_IsHalted()  returns FALSE (0001ms, 0441ms total)
T1780 000:772 JLINK_IsHalted() -- CPU_ReadMem(2 bytes @ 0x20000000)  returns TRUE (0004ms, 0444ms total)
T1780 000:776 JLINK_ReadReg(R15)  returns 0x20000000 (0000ms, 0440ms total)
T1780 000:776 JLINK_ClrBPEx(BPHandle = 0x0000000F)  returns 0x00 (0000ms, 0440ms total)
T1780 000:776 JLINK_ReadReg(R0)  returns 0x00000000 (0000ms, 0440ms total)
T1780 000:776 JLINK_WriteReg(R0, 0x08001C00)  returns 0x00 (0001ms, 0441ms total)
T1780 000:777 JLINK_WriteReg(R1, 0x00000400)  returns 0x00 (0000ms, 0441ms total)
T1780 000:777 JLINK_WriteReg(R2, 0x000000FF)  returns 0x00 (0000ms, 0441ms total)
T1780 000:777 JLINK_WriteReg(R3, 0x00000000)  returns 0x00 (0000ms, 0441ms total)
T1780 000:777 JLINK_WriteReg(R4, 0x00000000)  returns 0x00 (0000ms, 0441ms total)
T1780 000:777 JLINK_WriteReg(R5, 0x00000000)  returns 0x00 (0000ms, 0441ms total)
T1780 000:777 JLINK_WriteReg(R6, 0x00000000)  returns 0x00 (0000ms, 0441ms total)
T1780 000:777 JLINK_WriteReg(R7, 0x00000000)  returns 0x00 (0000ms, 0441ms total)
T1780 000:777 JLINK_WriteReg(R8, 0x00000000)  returns 0x00 (0000ms, 0441ms total)
T1780 000:777 JLINK_WriteReg(R9, 0x20000160)  returns 0x00 (0000ms, 0441ms total)
T1780 000:777 JLINK_WriteReg(R10, 0x00000000)  returns 0x00 (0000ms, 0441ms total)
T1780 000:777 JLINK_WriteReg(R11, 0x00000000)  returns 0x00 (0000ms, 0441ms total)
T1780 000:777 JLINK_WriteReg(R12, 0x00000000)  returns 0x00 (0000ms, 0441ms total)
T1780 000:777 JLINK_WriteReg(R13, 0x20000800)  returns 0x00 (0000ms, 0441ms total)
T1780 000:777 JLINK_WriteReg(R14, 0x20000001)  returns 0x00 (0000ms, 0441ms total)
T1780 000:777 JLINK_WriteReg(R15, 0x20000020)  returns 0x00 (0000ms, 0441ms total)
T1780 000:777 JLINK_WriteReg(XPSR, 0x01000000)  returns 0x00 (0000ms, 0441ms total)
T1780 000:777 JLINK_WriteReg(MSP, 0x20000800)  returns 0x00 (0000ms, 0441ms total)
T1780 000:777 JLINK_WriteReg(PSP, 0x20000800)  returns 0x00 (0000ms, 0441ms total)
T1780 000:777 JLINK_WriteReg(CFBP, 0x00000000)  returns 0x00 (0000ms, 0441ms total)
T1780 000:777 JLINK_SetBPEx(Addr = 0x20000000, Type = 0xFFFFFFF2)  returns 0x00000010 (0000ms, 0441ms total)
T1780 000:777 JLINK_Go() (0003ms, 0444ms total)
T1780 000:780 JLINK_IsHalted() -- CPU_ReadMem(2 bytes @ 0x20000000)  returns TRUE (0004ms, 0448ms total)
T1780 000:784 JLINK_ReadReg(R15)  returns 0x20000000 (0000ms, 0444ms total)
T1780 000:784 JLINK_ClrBPEx(BPHandle = 0x00000010)  returns 0x00 (0000ms, 0444ms total)
T1780 000:784 JLINK_ReadReg(R0)  returns 0x00000001 (0000ms, 0444ms total)
T1780 000:784 JLINK_WriteReg(R0, 0x08001C00)  returns 0x00 (0000ms, 0444ms total)
T1780 000:784 JLINK_WriteReg(R1, 0x00000400)  returns 0x00 (0000ms, 0444ms total)
T1780 000:784 JLINK_WriteReg(R2, 0x000000FF)  returns 0x00 (0000ms, 0444ms total)
T1780 000:784 JLINK_WriteReg(R3, 0x00000000)  returns 0x00 (0000ms, 0444ms total)
T1780 000:784 JLINK_WriteReg(R4, 0x00000000)  returns 0x00 (0000ms, 0444ms total)
T1780 000:784 JLINK_WriteReg(R5, 0x00000000)  returns 0x00 (0000ms, 0444ms total)
T1780 000:784 JLINK_WriteReg(R6, 0x00000000)  returns 0x00 (0000ms, 0444ms total)
T1780 000:784 JLINK_WriteReg(R7, 0x00000000)  returns 0x00 (0000ms, 0444ms total)
T1780 000:784 JLINK_WriteReg(R8, 0x00000000)  returns 0x00 (0000ms, 0444ms total)
T1780 000:784 JLINK_WriteReg(R9, 0x20000160)  returns 0x00 (0000ms, 0444ms total)
T1780 000:784 JLINK_WriteReg(R10, 0x00000000)  returns 0x00 (0000ms, 0444ms total)
T1780 000:784 JLINK_WriteReg(R11, 0x00000000)  returns 0x00 (0001ms, 0445ms total)
T1780 000:785 JLINK_WriteReg(R12, 0x00000000)  returns 0x00 (0000ms, 0445ms total)
T1780 000:785 JLINK_WriteReg(R13, 0x20000800)  returns 0x00 (0000ms, 0445ms total)
T1780 000:785 JLINK_WriteReg(R14, 0x20000001)  returns 0x00 (0000ms, 0445ms total)
T1780 000:785 JLINK_WriteReg(R15, 0x200000B6)  returns 0x00 (0000ms, 0445ms total)
T1780 000:785 JLINK_WriteReg(XPSR, 0x01000000)  returns 0x00 (0000ms, 0445ms total)
T1780 000:785 JLINK_WriteReg(MSP, 0x20000800)  returns 0x00 (0000ms, 0445ms total)
T1780 000:785 JLINK_WriteReg(PSP, 0x20000800)  returns 0x00 (0000ms, 0445ms total)
T1780 000:785 JLINK_WriteReg(CFBP, 0x00000000)  returns 0x00 (0000ms, 0445ms total)
T1780 000:785 JLINK_SetBPEx(Addr = 0x20000000, Type = 0xFFFFFFF2)  returns 0x00000011 (0000ms, 0445ms total)
T1780 000:785 JLINK_Go() (0002ms, 0447ms total)
T1780 000:787 JLINK_IsHalted()  returns FALSE (0001ms, 0448ms total)
T1780 000:793 JLINK_IsHalted()  returns FALSE (0001ms, 0448ms total)
T1780 000:795 JLINK_IsHalted()  returns FALSE (0001ms, 0448ms total)
T1780 000:797 JLINK_IsHalted()  returns FALSE (0001ms, 0448ms total)
T1780 000:801 JLINK_IsHalted()  returns FALSE (0001ms, 0448ms total)
T1780 000:803 JLINK_IsHalted()  returns FALSE (0001ms, 0448ms total)
T1780 000:805 JLINK_IsHalted()  returns FALSE (0001ms, 0448ms total)
T1780 000:807 JLINK_IsHalted()  returns FALSE (0001ms, 0448ms total)
T1780 000:809 JLINK_IsHalted() -- CPU_ReadMem(2 bytes @ 0x20000000)  returns TRUE (0004ms, 0451ms total)
T1780 000:813 JLINK_ReadReg(R15)  returns 0x20000000 (0000ms, 0447ms total)
T1780 000:813 JLINK_ClrBPEx(BPHandle = 0x00000011)  returns 0x00 (0000ms, 0447ms total)
T1780 000:813 JLINK_ReadReg(R0)  returns 0x00000000 (0000ms, 0447ms total)
T1780 000:814 JLINK_WriteReg(R0, 0x08002000)  returns 0x00 (0000ms, 0447ms total)
T1780 000:814 JLINK_WriteReg(R1, 0x00000400)  returns 0x00 (0000ms, 0447ms total)
T1780 000:814 JLINK_WriteReg(R2, 0x000000FF)  returns 0x00 (0000ms, 0447ms total)
T1780 000:814 JLINK_WriteReg(R3, 0x00000000)  returns 0x00 (0000ms, 0447ms total)
T1780 000:814 JLINK_WriteReg(R4, 0x00000000)  returns 0x00 (0000ms, 0447ms total)
T1780 000:814 JLINK_WriteReg(R5, 0x00000000)  returns 0x00 (0000ms, 0447ms total)
T1780 000:814 JLINK_WriteReg(R6, 0x00000000)  returns 0x00 (0000ms, 0447ms total)
T1780 000:814 JLINK_WriteReg(R7, 0x00000000)  returns 0x00 (0000ms, 0447ms total)
T1780 000:814 JLINK_WriteReg(R8, 0x00000000)  returns 0x00 (0000ms, 0447ms total)
T1780 000:814 JLINK_WriteReg(R9, 0x20000160)  returns 0x00 (0000ms, 0447ms total)
T1780 000:814 JLINK_WriteReg(R10, 0x00000000)  returns 0x00 (0000ms, 0447ms total)
T1780 000:814 JLINK_WriteReg(R11, 0x00000000)  returns 0x00 (0000ms, 0447ms total)
T1780 000:814 JLINK_WriteReg(R12, 0x00000000)  returns 0x00 (0000ms, 0447ms total)
T1780 000:814 JLINK_WriteReg(R13, 0x20000800)  returns 0x00 (0000ms, 0447ms total)
T1780 000:814 JLINK_WriteReg(R14, 0x20000001)  returns 0x00 (0000ms, 0447ms total)
T1780 000:814 JLINK_WriteReg(R15, 0x20000020)  returns 0x00 (0000ms, 0447ms total)
T1780 000:814 JLINK_WriteReg(XPSR, 0x01000000)  returns 0x00 (0000ms, 0447ms total)
T1780 000:814 JLINK_WriteReg(MSP, 0x20000800)  returns 0x00 (0000ms, 0447ms total)
